T52CC 000:022.404   SEGGER J-Link V9.26 Log File
T52CC 000:022.564   DLL Compiled: Mar 11 2026 16:57:45
T52CC 000:022.571   Logging started @ 2026-04-08 10:21
T52CC 000:022.578   Process: C:\Keil_v5\UV4\UV4.exe
T52CC 000:022.598 - 22.585ms 
T52CC 000:022.610 JLINK_SetWarnOutHandler(...)
T52CC 000:022.617 - 0.008ms 
T52CC 000:022.629 JLINK_OpenEx(...)
T52CC 000:030.546   Firmware: J-Link V9 compiled May  7 2021 16:26:12
T52CC 000:031.831   Firmware: J-Link V9 compiled May  7 2021 16:26:12
T52CC 000:032.236   Decompressing FW timestamp took 303 us
T52CC 000:039.534   Hardware: V9.70
T52CC 000:039.589   S/N: 63728769
T52CC 000:039.605   OEM: SEGGER
T52CC 000:039.622   Feature(s): GDB, RDI, FlashBP, FlashDL, JFlash
T52CC 000:041.119   Bootloader: (FW returned invalid version)
T52CC 000:042.586   TELNET listener socket opened on port 19021
T52CC 000:042.813   WEBSRV WEBSRV_Init(): Starting webserver thread(s)
T52CC 000:042.948   WEBSRV Failed to put socket into listener state (port 19080)
T52CC 000:043.138   WEBSRV Webserver running on local port 19081
T52CC 000:043.330   Looking for J-Link GUI Server exe at: C:\Keil_v5\ARM\Segger\JLinkGUIServer.exe
T52CC 000:043.443   Looking for J-Link GUI Server exe at: C:\Program Files\SEGGER\JLink_V926\JLinkGUIServer.exe
T52CC 000:043.487   Forking J-Link GUI Server: C:\Program Files\SEGGER\JLink_V926\JLinkGUIServer.exe
T52CC 000:047.877   J-Link GUI Server info: "J-Link GUI server V9.26 "
T52CC 000:048.539 - 25.885ms returns "O.K."
T52CC 000:048.679 JLINK_GetEmuCaps()
T52CC 000:048.699 - 0.015ms returns 0xB9FF7BBF
T52CC 000:048.716 JLINK_TIF_GetAvailable(...)
T52CC 000:049.240 - 0.524ms 
T52CC 000:049.294 JLINK_SetErrorOutHandler(...)
T52CC 000:049.302 - 0.008ms 
T52CC 000:049.365 JLINK_ExecCommand("ProjectFile = "C:\Users\chengfeng26\Desktop\Gatewy\Lower_computer\MDK-ARM\JLinkSettings.ini"", ...). 
T52CC 000:067.621   Ref file found at: C:\Keil_v5\ARM\Segger\JLinkDevices.ref
T52CC 000:067.773   REF file references invalid XML file: C:\Program Files\SEGGER\JLink_V926\JLinkDevices.xml
T52CC 000:069.160 - 19.796ms returns 0x00
T52CC 000:069.253 JLINK_ExecCommand("Device = STM32H743IITx", ...). 
T52CC 000:070.522   Flash bank @ 0x08000000: SFL: Parsing sectorization info from ELF file
T52CC 000:070.567     FlashDevice.SectorInfo[0]: .SectorSize = 0x00020000, .SectorStartAddr = 0x00000000
T52CC 000:070.580   FlashBank @0x08000000: Sectorization info from SFL ELF file ignored because sectorization override from DLL / XML file is active.
T52CC 000:070.900   Flash bank @ 0x08100000: SFL: Parsing sectorization info from ELF file
T52CC 000:070.919     FlashDevice.SectorInfo[0]: .SectorSize = 0x00020000, .SectorStartAddr = 0x00000000
T52CC 000:070.929   FlashBank @0x08100000: Sectorization info from SFL ELF file ignored because sectorization override from DLL / XML file is active.
T52CC 000:071.301   Flash bank @ 0x90000000: SFL: Parsing sectorization info from ELF file
T52CC 000:071.315     FlashDevice.SectorInfo[0]: .SectorSize = 0x00010000, .SectorStartAddr = 0x00000000
T52CC 000:086.823   Device "STM32H743II" selected.
T52CC 000:087.400 - 18.145ms returns 0x00
T52CC 000:087.473   ERROR: Unknown command
T52CC 000:087.579 JLINK_GetHardwareVersion()
T52CC 000:087.647 - 0.052ms returns 97000
T52CC 000:087.662 JLINK_GetDLLVersion()
T52CC 000:087.674 - 0.011ms returns 92600
T52CC 000:087.687 JLINK_GetOEMString(...)
T52CC 000:087.700 JLINK_GetFirmwareString(...)
T52CC 000:087.712 - 0.011ms 
T52CC 000:087.770 JLINK_GetDLLVersion()
T52CC 000:087.782 - 0.012ms returns 92600
T52CC 000:087.795 JLINK_GetCompileDateTime()
T52CC 000:087.805 - 0.011ms 
T52CC 000:087.828 JLINK_GetFirmwareString(...)
T52CC 000:087.840 - 0.011ms 
T52CC 000:087.858 JLINK_GetHardwareVersion()
T52CC 000:087.869 - 0.011ms returns 97000
T52CC 000:087.887 JLINK_GetSN()
T52CC 000:087.899 - 0.011ms returns 63728769
T52CC 000:087.917 JLINK_GetOEMString(...)
T52CC 000:087.941 JLINK_TIF_Select(JLINKARM_TIF_SWD)
T52CC 000:089.504 - 1.561ms returns 0x00
T52CC 000:089.547 JLINK_HasError()
T52CC 000:089.628 JLINK_SetSpeed(5000)
T52CC 000:090.089 - 0.460ms 
T52CC 000:090.125 JLINK_GetId()
T52CC 000:090.643   ConfigTargetSettings() start
T52CC 000:090.677    J-Link Script File: Executing ConfigTargetSettings()
T52CC 000:090.747   ConfigTargetSettings() end - Took 60us
T52CC 000:090.779   InitTarget() start
T52CC 000:090.796    J-Link Script File: Executing InitTarget()
T52CC 000:091.154   SWD selected. Executing JTAG -> SWD switching sequence.
T52CC 000:093.729   DAP initialized successfully.
T52CC 000:107.585   InitTarget() end - Took 16.7ms
T52CC 000:108.532   Found SW-DP with ID 0x6BA02477
T52CC 000:110.909   DPIDR: 0x6BA02477
T52CC 000:110.975   CoreSight SoC-400 or earlier
T52CC 000:111.006   Scanning AP map to find all available APs
T52CC 000:112.588   AP[3]: Stopped AP scan as end of AP map has been reached
T52CC 000:112.628   AP[0]: AHB-AP (IDR: 0x84770001, ADDR: 0x00000000)
T52CC 000:112.642   AP[1]: AHB-AP (IDR: 0x84770001, ADDR: 0x01000000)
T52CC 000:112.655   AP[2]: APB-AP (IDR: 0x54770002, ADDR: 0x02000000)
T52CC 000:112.673   Iterating through AP map to find AHB-AP to use
T52CC 000:113.940   AP[0]: Core found
T52CC 000:113.987   AP[0]: AHB-AP ROM base: 0xE00FE000
T52CC 000:114.699   CPUID register: 0x411FC271. Implementer code: 0x41 (ARM)
T52CC 000:115.294   Cache: L1 I/D-cache present
T52CC 000:115.335   Found Cortex-M7 r1p1, Little endian.
T52CC 000:116.136   -- Max. mem block: 0x00010E40
T52CC 000:117.383   CPU_ReadMem(4 bytes @ 0xE000EDF0)
T52CC 000:117.861   CPU_ReadMem(4 bytes @ 0xE0002000)
T52CC 000:118.257   FPUnit: 8 code (BP) slots and 0 literal slots
T52CC 000:118.295   CPU_ReadMem(4 bytes @ 0xE000EDFC)
T52CC 000:118.700   CPU_WriteMem(4 bytes @ 0xE000EDFC)
T52CC 000:119.081   CPU_ReadMem(4 bytes @ 0xE0001000)
T52CC 000:119.462   CPU_WriteMem(4 bytes @ 0xE0001000)
T52CC 000:119.833   CPU_ReadMem(4 bytes @ 0xE000ED88)
T52CC 000:120.416   CPU_WriteMem(4 bytes @ 0xE000ED88)
T52CC 000:120.844   CPU_ReadMem(4 bytes @ 0xE000ED88)
T52CC 000:121.311   CPU_WriteMem(4 bytes @ 0xE000ED88)
T52CC 000:121.712   CoreSight components:
T52CC 000:121.736   ROMTbl[0] @ E00FE000
T52CC 000:121.749   CPU_ReadMem(64 bytes @ 0xE00FE000)
T52CC 000:122.452   CPU_ReadMem(32 bytes @ 0xE00FFFE0)
T52CC 000:122.905   [0][0]: E00FF000 CID B105100D PID 000BB4C7 ROM Table
T52CC 000:122.932   ROMTbl[1] @ E00FF000
T52CC 000:122.943   CPU_ReadMem(64 bytes @ 0xE00FF000)
T52CC 000:123.530   CPU_ReadMem(32 bytes @ 0xE000EFE0)
T52CC 000:124.117   [1][0]: E000E000 CID B105E00D PID 000BB00C SCS-M7
T52CC 000:124.157   CPU_ReadMem(32 bytes @ 0xE0001FE0)
T52CC 000:124.716   [1][1]: E0001000 CID B105E00D PID 000BB002 DWT
T52CC 000:124.742   CPU_ReadMem(32 bytes @ 0xE0002FE0)
T52CC 000:125.331   [1][2]: E0002000 CID B105E00D PID 000BB00E FPB-M7
T52CC 000:125.352   CPU_ReadMem(32 bytes @ 0xE0000FE0)
T52CC 000:125.816   [1][3]: E0000000 CID B105E00D PID 000BB001 ITM
T52CC 000:125.837   CPU_ReadMem(32 bytes @ 0xE0041FE0)
T52CC 000:126.327   [0][1]: E0041000 CID B105900D PID 001BB975 ETM-M7
T52CC 000:126.348   CPU_ReadMem(32 bytes @ 0xE0043FE0)
T52CC 000:126.994   [0][2]: E0043000 CID B105900D PID 004BB906 CTI
T52CC 000:127.038   CPU_WriteMem(4 bytes @ 0xE000ED84)
T52CC 000:127.378   CPU_ReadMem(4 bytes @ 0xE000ED80)
T52CC 000:127.835   I-Cache L1: 16 KB, 256 Sets, 32 Bytes/Line, 2-Way
T52CC 000:127.869   CPU_WriteMem(4 bytes @ 0xE000ED84)
T52CC 000:128.367   CPU_ReadMem(4 bytes @ 0xE000ED80)
T52CC 000:128.867   D-Cache L1: 16 KB, 128 Sets, 32 Bytes/Line, 4-Way
T52CC 000:129.279 - 39.152ms returns 0x6BA02477
T52CC 000:129.320 JLINK_GetDLLVersion()
T52CC 000:129.328 - 0.007ms returns 92600
T52CC 000:129.336 JLINK_CORE_GetFound()
T52CC 000:129.343 - 0.006ms returns 0xE0100FF
T52CC 000:129.351 JLINK_GetDebugInfo(0x100 = JLINKARM_ROM_TABLE_ADDR_INDEX)
T52CC 000:129.359   Value=0xE00FE000
T52CC 000:129.368 - 0.017ms returns 0
T52CC 000:129.441 JLINK_GetDebugInfo(0x100 = JLINKARM_ROM_TABLE_ADDR_INDEX)
T52CC 000:129.450   Value=0xE00FE000
T52CC 000:129.460 - 0.019ms returns 0
T52CC 000:129.473 JLINK_GetDebugInfo(0x101 = JLINKARM_DEBUG_INFO_ETM_ADDR_INDEX)
T52CC 000:129.482   Value=0xE0041000
T52CC 000:129.491 - 0.018ms returns 0
T52CC 000:129.510 JLINK_ReadMemEx(0xE0041FD0, 0x20 Bytes, Flags = 0x02000004)
T52CC 000:129.547   CPU_ReadMem(32 bytes @ 0xE0041FD0)
T52CC 000:130.076   Data:  04 00 00 00 00 00 00 00 00 00 00 00 00 00 00 00 ...
T52CC 000:130.114 - 0.604ms returns 32 (0x20)
T52CC 000:130.127 JLINK_GetDebugInfo(0x102 = JLINKARM_DEBUG_INFO_MTB_ADDR_INDEX)
T52CC 000:130.134   Value=0x00000000
T52CC 000:130.144 - 0.017ms returns 0
T52CC 000:130.151 JLINK_GetDebugInfo(0x103 = JLINKARM_DEBUG_INFO_TPIU_ADDR_INDEX)
T52CC 000:130.158   Value=0xE00F5000
T52CC 000:130.167 - 0.016ms returns 0
T52CC 000:130.175 JLINK_GetDebugInfo(0x104 = JLINKARM_DEBUG_INFO_ITM_ADDR_INDEX)
T52CC 000:130.181   Value=0xE0000000
T52CC 000:130.190 - 0.016ms returns 0
T52CC 000:130.198 JLINK_GetDebugInfo(0x105 = JLINKARM_DEBUG_INFO_DWT_ADDR_INDEX)
T52CC 000:130.204   Value=0xE0001000
T52CC 000:130.214 - 0.015ms returns 0
T52CC 000:130.221 JLINK_GetDebugInfo(0x106 = JLINKARM_DEBUG_INFO_FPB_ADDR_INDEX)
T52CC 000:130.227   Value=0xE0002000
T52CC 000:130.237 - 0.016ms returns 0
T52CC 000:130.245 JLINK_GetDebugInfo(0x107 = JLINKARM_DEBUG_INFO_NVIC_ADDR_INDEX)
T52CC 000:130.251   Value=0xE000E000
T52CC 000:130.260 - 0.015ms returns 0
T52CC 000:130.268 JLINK_GetDebugInfo(0x10C = JLINKARM_DEBUG_INFO_DBG_ADDR_INDEX)
T52CC 000:130.274   Value=0xE000EDF0
T52CC 000:130.284 - 0.016ms returns 0
T52CC 000:130.292 JLINK_ReadMemU32(0xE000ED00, 0x1 Items)
T52CC 000:130.306   CPU_ReadMem(4 bytes @ 0xE000ED00)
T52CC 000:130.763   Data:  71 C2 1F 41
T52CC 000:130.806   Debug reg: CPUID
T52CC 000:130.828 - 0.535ms returns 1 (0x1)
T52CC 000:130.850 JLINK_GetDebugInfo(0x10F = JLINKARM_DEBUG_INFO_HAS_CORTEX_M_SECURITY_EXT_INDEX)
T52CC 000:130.866   Value=0x00000000
T52CC 000:130.887 - 0.037ms returns 0
T52CC 000:130.904 JLINK_HasError()
T52CC 000:130.922 JLINK_SetResetType(JLINKARM_CM3_RESET_TYPE_NORMAL)
T52CC 000:130.937 - 0.015ms returns JLINKARM_CM3_RESET_TYPE_NORMAL
T52CC 000:130.954 JLINK_Reset()
T52CC 000:130.985   JLINK_GetResetTypeDesc
T52CC 000:131.000   - 0.015ms 
T52CC 000:131.072   Reset type: NORMAL (https://kb.segger.com/J-Link_Reset_Strategies)
T52CC 000:131.100   CPU is running
T52CC 000:131.125   CPU_WriteMem(4 bytes @ 0xE000EDF0)
T52CC 000:131.511   CPU is running
T52CC 000:131.550   CPU_WriteMem(4 bytes @ 0xE000EDFC)
T52CC 000:132.044   Reset: Halt core after reset via DEMCR.VC_CORERESET.
T52CC 000:132.793   Reset: Reset device via AIRCR.SYSRESETREQ.
T52CC 000:132.830   CPU is running
T52CC 000:132.846   CPU_WriteMem(4 bytes @ 0xE000ED0C)
T52CC 000:187.428   CPU_ReadMem(4 bytes @ 0xE000EDF0)
T52CC 000:187.854   CPU_ReadMem(4 bytes @ 0xE000EDF0)
T52CC 000:190.643   CPU_WriteMem(4 bytes @ 0xE000EDFC)
T52CC 000:197.469   CPU_ReadMem(4 bytes @ 0xE000EDF0)
T52CC 000:200.546   CPU_WriteMem(4 bytes @ 0xE0002000)
T52CC 000:200.995   CPU_ReadMem(4 bytes @ 0xE000EDFC)
T52CC 000:201.332   CPU_ReadMem(4 bytes @ 0xE0001000)
T52CC 000:201.693 - 70.738ms 
T52CC 000:201.740 JLINK_HasError()
T52CC 000:201.854 JLINK_ReadReg(R15 (PC))
T52CC 000:201.875 - 0.041ms returns 0x080003F8
T52CC 000:201.883 JLINK_ReadReg(XPSR)
T52CC 000:201.890 - 0.006ms returns 0x01000000
T52CC 000:201.898 JLINK_Halt()
T52CC 000:201.906 - 0.007ms returns 0x00
T52CC 000:201.914 JLINK_ReadMemU32(0xE000EDF0, 0x1 Items)
T52CC 000:201.928   CPU_ReadMem(4 bytes @ 0xE000EDF0)
T52CC 000:202.240   Data:  03 00 03 00
T52CC 000:202.260   Debug reg: DHCSR
T52CC 000:202.270 - 0.356ms returns 1 (0x1)
T52CC 000:202.290 JLINK_WriteU32(0xE000EDF0, 0xA05F0003)
T52CC 000:202.298   Debug reg: DHCSR
T52CC 000:202.548   CPU_WriteMem(4 bytes @ 0xE000EDF0)
T52CC 000:203.019 - 0.727ms returns 0 (0x00000000)
T52CC 000:203.055 JLINK_WriteU32(0xE000EDFC, 0x01000000)
T52CC 000:203.068   Debug reg: DEMCR
T52CC 000:203.094   CPU_WriteMem(4 bytes @ 0xE000EDFC)
T52CC 000:203.588 - 0.533ms returns 0 (0x00000000)
T52CC 000:203.649 JLINK_GetHWStatus(...)
T52CC 000:204.046 - 0.396ms returns 0
T52CC 000:204.120 JLINK_GetNumBPUnits(Type = 0xFFFFFF00)
T52CC 000:204.135 - 0.015ms returns 0x08
T52CC 000:204.148 JLINK_GetNumBPUnits(Type = 0xF0)
T52CC 000:204.160 - 0.011ms returns 0x2000
T52CC 000:204.173 JLINK_GetNumWPUnits()
T52CC 000:204.184 - 0.011ms returns 4
T52CC 000:204.213 JLINK_GetSpeed()
T52CC 000:204.225 - 0.012ms returns 4000
T52CC 000:204.248 JLINK_ReadMemU32(0xE000E004, 0x1 Items)
T52CC 000:204.269   CPU_ReadMem(4 bytes @ 0xE000E004)
T52CC 000:204.588   Data:  04 00 00 00
T52CC 000:204.608 - 0.360ms returns 1 (0x1)
T52CC 000:204.618 JLINK_ReadMemU32(0xE000E004, 0x1 Items)
T52CC 000:204.629   CPU_ReadMem(4 bytes @ 0xE000E004)
T52CC 000:205.161   Data:  04 00 00 00
T52CC 000:205.194 - 0.575ms returns 1 (0x1)
T52CC 000:205.212 JLINK_WriteMemEx(0xE0001000, 0x0000001C Bytes, Flags = 0x02000004)
T52CC 000:205.225   Data:  01 00 00 00 00 00 00 00 00 00 00 00 00 00 00 00 ...
T52CC 000:205.278   CPU_WriteMem(28 bytes @ 0xE0001000)
T52CC 000:205.795 - 0.583ms returns 0x1C
T52CC 000:205.816 JLINK_HasError()
T52CC 000:205.825 JLINK_ReadReg(R15 (PC))
T52CC 000:205.834 - 0.008ms returns 0x080003F8
T52CC 000:205.841 JLINK_ReadReg(XPSR)
T52CC 000:205.848 - 0.006ms returns 0x01000000
T52CC 000:417.321 JLINK_HasError()
T52CC 000:417.387 JLINK_SetResetType(JLINKARM_CM3_RESET_TYPE_NORMAL)
T52CC 000:417.406 - 0.018ms returns JLINKARM_CM3_RESET_TYPE_NORMAL
T52CC 000:417.423 JLINK_Reset()
T52CC 000:417.450   JLINK_GetResetTypeDesc
T52CC 000:417.465   - 0.015ms 
T52CC 000:417.519   Reset type: NORMAL (https://kb.segger.com/J-Link_Reset_Strategies)
T52CC 000:417.541   CPU_WriteMem(4 bytes @ 0xE000EDF0)
T52CC 000:417.918   CPU_WriteMem(4 bytes @ 0xE000EDFC)
T52CC 000:418.253   Reset: Halt core after reset via DEMCR.VC_CORERESET.
T52CC 000:418.907   Reset: Reset device via AIRCR.SYSRESETREQ.
T52CC 000:418.947   CPU_WriteMem(4 bytes @ 0xE000ED0C)
T52CC 000:472.595   CPU_ReadMem(4 bytes @ 0xE000EDF0)
T52CC 000:473.236   CPU_ReadMem(4 bytes @ 0xE000EDF0)
T52CC 000:473.883   CPU_WriteMem(4 bytes @ 0xE000EDFC)
T52CC 000:480.232   CPU_ReadMem(4 bytes @ 0xE000EDF0)
T52CC 000:483.056   CPU_WriteMem(4 bytes @ 0xE0002000)
T52CC 000:483.487   CPU_ReadMem(4 bytes @ 0xE000EDFC)
T52CC 000:483.841   CPU_ReadMem(4 bytes @ 0xE0001000)
T52CC 000:484.286 - 66.861ms 
T52CC 000:484.479 JLINK_HasError()
T52CC 000:484.501 JLINK_ReadReg(R15 (PC))
T52CC 000:484.518 - 0.015ms returns 0x080003F8
T52CC 000:484.533 JLINK_ReadReg(XPSR)
T52CC 000:484.547 - 0.013ms returns 0x01000000
T52CC 001:631.087 JLINK_ReadMemEx(0x080002F8, 0x3C Bytes, Flags = 0x02000000)
T52CC 001:631.130   CPU_ReadMem(128 bytes @ 0x080002C0)
T52CC 001:632.280    -- Updating C cache (128 bytes @ 0x080002C0)
T52CC 001:632.342    -- Read from C cache (60 bytes @ 0x080002F8)
T52CC 001:632.371   Data:  10 3A 28 BF 78 C1 FB D8 52 07 28 BF 30 C1 48 BF ...
T52CC 001:632.394 - 1.307ms returns 60 (0x3C)
T52CC 001:632.436 JLINK_ReadMemEx(0x08000334, 0x3C Bytes, Flags = 0x02000000)
T52CC 001:632.460   CPU_ReadMem(64 bytes @ 0x08000340)
T52CC 001:633.177    -- Updating C cache (64 bytes @ 0x08000340)
T52CC 001:633.217    -- Read from C cache (60 bytes @ 0x08000334)
T52CC 001:633.232   Data:  25 FA 00 00 2C 4B 19 68 08 68 B0 E8 F0 4F 80 F3 ...
T52CC 001:633.243 - 0.808ms returns 60 (0x3C)
T52CC 001:633.267 JLINK_ReadMemEx(0x08000370, 0x3C Bytes, Flags = 0x02000000)
T52CC 001:633.281   CPU_ReadMem(64 bytes @ 0x08000380)
T52CC 001:634.188    -- Updating C cache (64 bytes @ 0x08000380)
T52CC 001:634.239    -- Read from C cache (60 bytes @ 0x08000370)
T52CC 001:634.266   Data:  4F 8F BF F3 6F 8F 00 DF 00 BF 00 BF 08 ED 00 E0 ...
T52CC 001:634.289 - 1.021ms returns 60 (0x3C)
T52CC 001:634.326 JLINK_ReadMemEx(0x080003AC, 0x3C Bytes, Flags = 0x02000000)
T52CC 001:634.350   CPU_ReadMem(64 bytes @ 0x080003C0)
T52CC 001:635.132    -- Updating C cache (64 bytes @ 0x080003C0)
T52CC 001:635.192    -- Read from C cache (60 bytes @ 0x080003AC)
T52CC 001:635.222   Data:  F0 4F 10 60 09 B4 4F F0 50 00 80 F3 11 88 BF F3 ...
T52CC 001:635.348 - 1.023ms returns 60 (0x3C)
T52CC 001:635.372 JLINK_ReadMemEx(0x080003E8, 0x18 Bytes, Flags = 0x02000000)
T52CC 001:635.382    -- Read from C cache (24 bytes @ 0x080003E8)
T52CC 001:635.393   Data:  6F 8F 70 47 20 00 00 24 EF F3 05 80 70 47 00 00 ...
T52CC 001:635.402 - 0.030ms returns 24 (0x18)
T52CC 001:635.410 JLINK_ReadMemEx(0x08000400, 0x24 Bytes, Flags = 0x02000000)
T52CC 001:635.421   CPU_ReadMem(64 bytes @ 0x08000400)
T52CC 001:636.325    -- Updating C cache (64 bytes @ 0x08000400)
T52CC 001:636.349    -- Read from C cache (36 bytes @ 0x08000400)
T52CC 001:636.361   Data:  0A 48 00 47 FE E7 FE E7 FE E7 FE E7 FE E7 FE E7 ...
T52CC 001:636.370 - 0.960ms returns 36 (0x24)
T55AC 013:470.394 JLINK_ReadMemEx(0x080003F8, 0x2 Bytes, Flags = 0x02000000)
T55AC 013:470.450    -- Read from C cache (2 bytes @ 0x080003F8)
T55AC 013:470.469   Data:  0A 48
T55AC 013:470.488 - 0.095ms returns 2 (0x2)
T55AC 013:470.502 JLINK_HasError()
T55AC 013:470.520 JLINK_SetBPEx(Addr = 0x08004EB6, Type = 0xFFFFFFF2)
T55AC 013:470.534 - 0.014ms returns 0x00000001
T55AC 013:470.547 JLINK_HasError()
T55AC 013:470.560 JLINK_HasError()
T55AC 013:470.590 JLINK_Go()
T55AC 013:471.053   CPU_WriteMem(4 bytes @ 0xE0002000)
T55AC 013:471.643   CPU_ReadMem(4 bytes @ 0xE0001000)
T55AC 013:471.981   CPU_WriteMem(4 bytes @ 0xE0002008)
T55AC 013:472.005   CPU_WriteMem(4 bytes @ 0xE000200C)
T55AC 013:472.016   CPU_WriteMem(4 bytes @ 0xE0002010)
T55AC 013:472.026   CPU_WriteMem(4 bytes @ 0xE0002014)
T55AC 013:472.035   CPU_WriteMem(4 bytes @ 0xE0002018)
T55AC 013:472.046   CPU_WriteMem(4 bytes @ 0xE000201C)
T55AC 013:472.056   CPU_WriteMem(4 bytes @ 0xE0002020)
T55AC 013:472.066   CPU_WriteMem(4 bytes @ 0xE0002024)
T55AC 013:473.566   CPU_WriteMem(4 bytes @ 0xE0001004)
T55AC 013:486.357   Memory map 'after startup completion point' is active
T55AC 013:486.418 - 15.827ms 
T55AC 013:586.534 JLINK_HasError()
T55AC 013:586.606 JLINK_IsHalted()
T55AC 013:588.971 - 2.363ms returns TRUE
T55AC 013:589.022 JLINK_HasError()
T55AC 013:589.030 JLINK_Halt()
T55AC 013:589.038 - 0.007ms returns 0x00
T55AC 013:589.046 JLINK_IsHalted()
T55AC 013:589.053 - 0.006ms returns TRUE
T55AC 013:589.064 JLINK_IsHalted()
T55AC 013:589.070 - 0.006ms returns TRUE
T55AC 013:589.078 JLINK_IsHalted()
T55AC 013:589.085 - 0.006ms returns TRUE
T55AC 013:589.098 JLINK_HasError()
T55AC 013:589.696 JLINK_ReadReg(R15 (PC))
T55AC 013:589.738 - 0.041ms returns 0x08004EB6
T55AC 013:589.747 JLINK_ReadReg(XPSR)
T55AC 013:589.755 - 0.006ms returns 0x21000000
T55AC 013:589.770 JLINK_HasError()
T55AC 013:589.803 JLINK_ClrBPEx(BPHandle = 0x00000001)
T55AC 013:589.811 - 0.008ms returns 0x00
T55AC 013:589.819 JLINK_HasError()
T55AC 013:589.827 JLINK_HasError()
T55AC 013:589.835 JLINK_ReadMemU32(0xE000ED30, 0x1 Items)
T55AC 013:589.853   CPU_ReadMem(4 bytes @ 0xE000ED30)
T55AC 013:590.275   Data:  02 00 00 00
T55AC 013:590.312 - 0.477ms returns 1 (0x1)
T55AC 013:590.325 JLINK_ReadMemU32(0xE0001028, 0x1 Items)
T55AC 013:590.341   CPU_ReadMem(4 bytes @ 0xE0001028)
T55AC 013:590.744   Data:  00 00 00 00
T55AC 013:590.773   Debug reg: DWT_FUNC[0]
T55AC 013:590.782 - 0.457ms returns 1 (0x1)
T55AC 013:590.794 JLINK_ReadMemU32(0xE0001038, 0x1 Items)
T55AC 013:590.806   CPU_ReadMem(4 bytes @ 0xE0001038)
T55AC 013:591.152   Data:  00 02 00 00
T55AC 013:591.182   Debug reg: DWT_FUNC[1]
T55AC 013:591.194 - 0.399ms returns 1 (0x1)
T55AC 013:591.206 JLINK_ReadMemU32(0xE0001048, 0x1 Items)
T55AC 013:591.221   CPU_ReadMem(4 bytes @ 0xE0001048)
T55AC 013:591.563   Data:  00 00 00 00
T55AC 013:591.598   Debug reg: DWT_FUNC[2]
T55AC 013:591.610 - 0.403ms returns 1 (0x1)
T55AC 013:591.622 JLINK_ReadMemU32(0xE0001058, 0x1 Items)
T55AC 013:591.635   CPU_ReadMem(4 bytes @ 0xE0001058)
T55AC 013:591.979   Data:  00 00 00 00
T55AC 013:592.014   Debug reg: DWT_FUNC[3]
T55AC 013:592.026 - 0.403ms returns 1 (0x1)
T55AC 013:592.070 JLINK_HasError()
T55AC 013:592.080 JLINK_ReadReg(R0)
T55AC 013:592.090 - 0.008ms returns 0x240055E0
T55AC 013:592.110 JLINK_ReadReg(R1)
T55AC 013:592.117 - 0.006ms returns 0x240057E0
T55AC 013:592.125 JLINK_ReadReg(R2)
T55AC 013:592.131 - 0.007ms returns 0x240057E0
T55AC 013:592.139 JLINK_ReadReg(R3)
T55AC 013:592.146 - 0.006ms returns 0x240057E0
T55AC 013:592.154 JLINK_ReadReg(R4)
T55AC 013:592.160 - 0.006ms returns 0x00000000
T55AC 013:592.168 JLINK_ReadReg(R5)
T55AC 013:592.174 - 0.006ms returns 0x2400557C
T55AC 013:592.181 JLINK_ReadReg(R6)
T55AC 013:592.189 - 0.006ms returns 0x00000000
T55AC 013:592.195 JLINK_ReadReg(R7)
T55AC 013:592.202 - 0.006ms returns 0x00000000
T55AC 013:592.210 JLINK_ReadReg(R8)
T55AC 013:592.218 - 0.007ms returns 0x00000000
T55AC 013:592.224 JLINK_ReadReg(R9)
T55AC 013:592.230 - 0.006ms returns 0x00000000
T55AC 013:592.238 JLINK_ReadReg(R10)
T55AC 013:592.245 - 0.006ms returns 0x080066DC
T55AC 013:592.253 JLINK_ReadReg(R11)
T55AC 013:592.259 - 0.006ms returns 0x00000000
T55AC 013:592.267 JLINK_ReadReg(R12)
T55AC 013:592.274 - 0.006ms returns 0x240055BC
T55AC 013:592.280 JLINK_ReadReg(R13 (SP))
T55AC 013:592.288 - 0.007ms returns 0x24005BE0
T55AC 013:592.294 JLINK_ReadReg(R14)
T55AC 013:592.301 - 0.006ms returns 0x08000327
T55AC 013:592.310 JLINK_ReadReg(R15 (PC))
T55AC 013:592.317 - 0.006ms returns 0x08004EB6
T55AC 013:592.323 JLINK_ReadReg(XPSR)
T55AC 013:592.331 - 0.006ms returns 0x21000000
T55AC 013:592.338 JLINK_ReadReg(MSP)
T55AC 013:592.344 - 0.006ms returns 0x24005BE0
T55AC 013:592.352 JLINK_ReadReg(PSP)
T55AC 013:592.358 - 0.006ms returns 0x00000000
T55AC 013:592.366 JLINK_ReadReg(CFBP)
T55AC 013:592.373 - 0.006ms returns 0x04000000
T55AC 013:592.381 JLINK_ReadReg(FPSCR)
T55AC 013:595.653 - 3.270ms returns 0x03000000
T55AC 013:595.693 JLINK_ReadReg(FPS0)
T55AC 013:595.704 - 0.010ms returns 0x00000000
T55AC 013:595.712 JLINK_ReadReg(FPS1)
T55AC 013:595.718 - 0.006ms returns 0x00000000
T55AC 013:595.725 JLINK_ReadReg(FPS2)
T55AC 013:595.733 - 0.006ms returns 0x00000000
T55AC 013:595.739 JLINK_ReadReg(FPS3)
T55AC 013:595.746 - 0.006ms returns 0x00000000
T55AC 013:595.754 JLINK_ReadReg(FPS4)
T55AC 013:595.760 - 0.006ms returns 0x00000000
T55AC 013:595.768 JLINK_ReadReg(FPS5)
T55AC 013:595.774 - 0.006ms returns 0x00000000
T55AC 013:595.781 JLINK_ReadReg(FPS6)
T55AC 013:595.789 - 0.006ms returns 0x00000000
T55AC 013:595.795 JLINK_ReadReg(FPS7)
T55AC 013:595.802 - 0.006ms returns 0x00000000
T55AC 013:595.810 JLINK_ReadReg(FPS8)
T55AC 013:595.816 - 0.006ms returns 0x00000000
T55AC 013:595.824 JLINK_ReadReg(FPS9)
T55AC 013:595.830 - 0.006ms returns 0x00000000
T55AC 013:595.837 JLINK_ReadReg(FPS10)
T55AC 013:595.845 - 0.006ms returns 0x00000000
T55AC 013:595.851 JLINK_ReadReg(FPS11)
T55AC 013:595.858 - 0.006ms returns 0x00000000
T55AC 013:595.866 JLINK_ReadReg(FPS12)
T55AC 013:595.872 - 0.006ms returns 0x00000000
T55AC 013:595.880 JLINK_ReadReg(FPS13)
T55AC 013:595.886 - 0.006ms returns 0x00000000
T55AC 013:595.893 JLINK_ReadReg(FPS14)
T55AC 013:595.901 - 0.006ms returns 0x00000000
T55AC 013:595.907 JLINK_ReadReg(FPS15)
T55AC 013:595.914 - 0.006ms returns 0xFFFFFFFF
T55AC 013:595.922 JLINK_ReadReg(FPS16)
T55AC 013:595.928 - 0.006ms returns 0x00000000
T55AC 013:595.934 JLINK_ReadReg(FPS17)
T55AC 013:595.942 - 0.006ms returns 0x00000000
T55AC 013:595.949 JLINK_ReadReg(FPS18)
T55AC 013:595.955 - 0.006ms returns 0x00000000
T55AC 013:595.963 JLINK_ReadReg(FPS19)
T55AC 013:595.970 - 0.006ms returns 0x00000000
T55AC 013:595.978 JLINK_ReadReg(FPS20)
T55AC 013:595.984 - 0.006ms returns 0x00000000
T55AC 013:595.990 JLINK_ReadReg(FPS21)
T55AC 013:595.998 - 0.006ms returns 0x00000000
T55AC 013:596.005 JLINK_ReadReg(FPS22)
T55AC 013:596.011 - 0.006ms returns 0x00000000
T55AC 013:596.019 JLINK_ReadReg(FPS23)
T55AC 013:596.026 - 0.006ms returns 0x00000000
T55AC 013:596.034 JLINK_ReadReg(FPS24)
T55AC 013:596.040 - 0.006ms returns 0x00000000
T55AC 013:596.046 JLINK_ReadReg(FPS25)
T55AC 013:596.053 - 0.006ms returns 0x00000000
T55AC 013:596.061 JLINK_ReadReg(FPS26)
T55AC 013:596.067 - 0.006ms returns 0x00000000
T55AC 013:596.085 JLINK_ReadReg(FPS27)
T55AC 013:596.094 - 0.009ms returns 0x00000000
T55AC 013:596.112 JLINK_ReadReg(FPS28)
T55AC 013:596.122 - 0.010ms returns 0x00000000
T55AC 013:596.131 JLINK_ReadReg(FPS29)
T55AC 013:596.141 - 0.010ms returns 0x00000000
T55AC 013:596.150 JLINK_ReadReg(FPS30)
T55AC 013:596.157 - 0.006ms returns 0x00000000
T55AC 013:596.165 JLINK_ReadReg(FPS31)
T55AC 013:596.171 - 0.006ms returns 0xFFFFFFFF
T52CC 013:610.856 JLINK_HasError()
T52CC 013:610.904 JLINK_ReadMemU32(0xE0001004, 0x1 Items)
T52CC 013:610.925   CPU_ReadMem(4 bytes @ 0xE0001004)
T52CC 013:611.467   Data:  8C 22 00 00
T52CC 013:611.494   Debug reg: DWT_CYCCNT
T52CC 013:611.506 - 0.601ms returns 1 (0x1)
T52CC 013:615.910 JLINK_ReadMemEx(0x08004DB6, 0x2 Bytes, Flags = 0x02000000)
T52CC 013:615.973   CPU_ReadMem(64 bytes @ 0x08004D80)
T52CC 013:616.715    -- Updating C cache (64 bytes @ 0x08004D80)
T52CC 013:616.766    -- Read from C cache (2 bytes @ 0x08004DB6)
T52CC 013:616.779   Data:  61 1F
T52CC 013:616.790 - 0.881ms returns 2 (0x2)
T52CC 013:616.808 JLINK_ReadMemEx(0x08004DB8, 0x3C Bytes, Flags = 0x02000000)
T52CC 013:616.822   CPU_ReadMem(64 bytes @ 0x08004DC0)
T52CC 013:617.502    -- Updating C cache (64 bytes @ 0x08004DC0)
T52CC 013:617.541    -- Read from C cache (60 bytes @ 0x08004DB8)
T52CC 013:617.555   Data:  3A 70 08 70 54 46 19 48 45 68 DA F8 0C 00 2A 1A ...
T52CC 013:617.566 - 0.758ms returns 60 (0x3C)
T52CC 013:617.608 JLINK_ReadMemEx(0x08004DF4, 0x3C Bytes, Flags = 0x02000000)
T52CC 013:617.624   CPU_ReadMem(64 bytes @ 0x08004E00)
T52CC 013:618.277    -- Updating C cache (64 bytes @ 0x08004E00)
T52CC 013:618.310    -- Read from C cache (60 bytes @ 0x08004DF4)
T52CC 013:618.323   Data:  18 10 54 46 0B 48 01 EB 41 01 00 EB C1 00 C1 6E ...
T52CC 013:618.334 - 0.726ms returns 60 (0x3C)
T52CC 013:618.355 JLINK_ReadMemEx(0x08004E30, 0x3C Bytes, Flags = 0x02000000)
T52CC 013:618.368   CPU_ReadMem(64 bytes @ 0x08004E40)
T52CC 013:618.994    -- Updating C cache (64 bytes @ 0x08004E40)
T52CC 013:619.027    -- Read from C cache (60 bytes @ 0x08004E30)
T52CC 013:619.040   Data:  01 20 6A 46 8D F8 00 00 50 1C 61 69 05 E0 00 BF ...
T52CC 013:619.050 - 0.694ms returns 60 (0x3C)
T52CC 013:619.072 JLINK_ReadMemEx(0x08004E6C, 0x3C Bytes, Flags = 0x02000000)
T52CC 013:619.086   CPU_ReadMem(64 bytes @ 0x08004E80)
T52CC 013:619.806    -- Updating C cache (64 bytes @ 0x08004E80)
T52CC 013:619.830    -- Read from C cache (60 bytes @ 0x08004E6C)
T52CC 013:619.842   Data:  01 1B 82 1A 60 78 69 46 FE F7 84 FE 20 B1 E5 60 ...
T52CC 013:619.851 - 0.779ms returns 60 (0x3C)
T52CC 013:619.869 JLINK_ReadMemEx(0x08004EA8, 0x3C Bytes, Flags = 0x02000000)
T52CC 013:619.878   CPU_ReadMem(64 bytes @ 0x08004EC0)
T52CC 013:620.507    -- Updating C cache (64 bytes @ 0x08004EC0)
T52CC 013:620.530    -- Read from C cache (60 bytes @ 0x08004EA8)
T52CC 013:620.541   Data:  00 F0 0F 00 00 F1 E0 20 80 F8 14 1D 70 47 1F B5 ...
T52CC 013:620.550 - 0.682ms returns 60 (0x3C)
T55AC 017:843.860 JLINK_ReadMemEx(0x08004EB6, 0x2 Bytes, Flags = 0x02000000)
T55AC 017:843.924    -- Read from C cache (2 bytes @ 0x08004EB6)
T55AC 017:843.944   Data:  1F B5
T55AC 017:843.962 - 0.103ms returns 2 (0x2)
T55AC 017:843.976 JLINK_HasError()
T55AC 017:843.994 JLINK_Step()
T55AC 017:844.646    -- Read from C cache (2 bytes @ 0x08004EB6)
T55AC 017:844.688   CPU_ReadMem(4 bytes @ 0xE000ED18)
T55AC 017:845.236   CPU_WriteMem(4 bytes @ 0xE000ED18)
T55AC 017:845.756   CPU_ReadMem(4 bytes @ 0xE000ED18)
T55AC 017:846.320   CPU_WriteMem(4 bytes @ 0xE000ED18)
T55AC 017:846.878   CPU_WriteMem(24 bytes @ 0x24005BC8)
T55AC 017:847.608   -- Simulated
T55AC 017:847.642 - 3.647ms returns 0
T55AC 017:847.660 JLINK_HasError()
T55AC 017:847.676 JLINK_ReadReg(R15 (PC))
T55AC 017:847.688 - 0.012ms returns 0x08004EB8
T55AC 017:847.702 JLINK_ReadReg(XPSR)
T55AC 017:847.714 - 0.012ms returns 0x21000000
T55AC 017:847.736 JLINK_HasError()
T55AC 017:847.750 JLINK_SetBPEx(Addr = 0x08004F02, Type = 0xFFFFFFF2)
T55AC 017:847.770 - 0.020ms returns 0x00000002
T55AC 017:847.786 JLINK_HasError()
T55AC 017:847.798 JLINK_HasError()
T55AC 017:847.812 JLINK_Go()
T55AC 017:847.828   CPU_WriteMem(4 bytes @ 0xE0002000)
T55AC 017:848.302   CPU_ReadMem(4 bytes @ 0xE0001000)
T55AC 017:848.740   CPU_WriteMem(4 bytes @ 0xE0002008)
T55AC 017:849.154   CPU_WriteMem(4 bytes @ 0xE0001004)
T55AC 017:850.742 - 2.929ms 
T55AC 017:951.262 JLINK_HasError()
T55AC 017:951.324 JLINK_IsHalted()
T55AC 017:953.698 - 2.371ms returns TRUE
T55AC 017:953.732 JLINK_HasError()
T55AC 017:953.744 JLINK_Halt()
T55AC 017:953.756 - 0.011ms returns 0x00
T55AC 017:953.770 JLINK_IsHalted()
T55AC 017:953.780 - 0.011ms returns TRUE
T55AC 017:953.794 JLINK_IsHalted()
T55AC 017:953.804 - 0.010ms returns TRUE
T55AC 017:953.818 JLINK_IsHalted()
T55AC 017:953.828 - 0.010ms returns TRUE
T55AC 017:953.842 JLINK_HasError()
T55AC 017:953.854 JLINK_ReadReg(R15 (PC))
T55AC 017:953.868 - 0.012ms returns 0x08004F02
T55AC 017:953.880 JLINK_ReadReg(XPSR)
T55AC 017:953.892 - 0.011ms returns 0x81000000
T55AC 017:953.908 JLINK_HasError()
T55AC 017:953.920 JLINK_ClrBPEx(BPHandle = 0x00000002)
T55AC 017:953.932 - 0.012ms returns 0x00
T55AC 017:953.944 JLINK_HasError()
T55AC 017:953.956 JLINK_HasError()
T55AC 017:953.972 JLINK_ReadMemU32(0xE000ED30, 0x1 Items)
T55AC 017:953.992   CPU_ReadMem(4 bytes @ 0xE000ED30)
T55AC 017:954.484   Data:  02 00 00 00
T55AC 017:954.518 - 0.547ms returns 1 (0x1)
T55AC 017:954.534 JLINK_ReadMemU32(0xE0001028, 0x1 Items)
T55AC 017:954.552   CPU_ReadMem(4 bytes @ 0xE0001028)
T55AC 017:955.122   Data:  00 00 00 00
T55AC 017:955.140   Debug reg: DWT_FUNC[0]
T55AC 017:955.152 - 0.617ms returns 1 (0x1)
T55AC 017:955.162 JLINK_ReadMemU32(0xE0001038, 0x1 Items)
T55AC 017:955.172   CPU_ReadMem(4 bytes @ 0xE0001038)
T55AC 017:955.772   Data:  00 02 00 00
T55AC 017:955.812   Debug reg: DWT_FUNC[1]
T55AC 017:955.836 - 0.673ms returns 1 (0x1)
T55AC 017:955.856 JLINK_ReadMemU32(0xE0001048, 0x1 Items)
T55AC 017:955.880   CPU_ReadMem(4 bytes @ 0xE0001048)
T55AC 017:956.332   Data:  00 00 00 00
T55AC 017:956.368   Debug reg: DWT_FUNC[2]
T55AC 017:956.384 - 0.528ms returns 1 (0x1)
T55AC 017:956.402 JLINK_ReadMemU32(0xE0001058, 0x1 Items)
T55AC 017:956.420   CPU_ReadMem(4 bytes @ 0xE0001058)
T55AC 017:957.016   Data:  00 00 00 00
T55AC 017:957.050   Debug reg: DWT_FUNC[3]
T55AC 017:957.068 - 0.666ms returns 1 (0x1)
T55AC 017:957.116 JLINK_HasError()
T55AC 017:957.126 JLINK_ReadReg(R0)
T55AC 017:957.134 - 0.007ms returns 0x00010000
T55AC 017:957.140 JLINK_ReadReg(R1)
T55AC 017:957.148 - 0.006ms returns 0xE000ED24
T55AC 017:957.156 JLINK_ReadReg(R2)
T55AC 017:957.164 - 0.006ms returns 0xE000ED94
T55AC 017:957.170 JLINK_ReadReg(R3)
T55AC 017:957.176 - 0.006ms returns 0x00000001
T55AC 017:957.184 JLINK_ReadReg(R4)
T55AC 017:957.190 - 0.006ms returns 0x00000000
T55AC 017:957.196 JLINK_ReadReg(R5)
T55AC 017:957.204 - 0.006ms returns 0x2400557C
T55AC 017:957.212 JLINK_ReadReg(R6)
T55AC 017:957.218 - 0.006ms returns 0x00000000
T55AC 017:957.226 JLINK_ReadReg(R7)
T55AC 017:957.232 - 0.006ms returns 0x00000000
T55AC 017:957.238 JLINK_ReadReg(R8)
T55AC 017:957.244 - 0.006ms returns 0x00000000
T55AC 017:957.252 JLINK_ReadReg(R9)
T55AC 017:957.260 - 0.006ms returns 0x00000000
T55AC 017:957.266 JLINK_ReadReg(R10)
T55AC 017:957.274 - 0.006ms returns 0x080066DC
T55AC 017:957.280 JLINK_ReadReg(R11)
T55AC 017:957.286 - 0.006ms returns 0x00000000
T55AC 017:957.294 JLINK_ReadReg(R12)
T55AC 017:957.300 - 0.006ms returns 0x00000087
T55AC 017:957.308 JLINK_ReadReg(R13 (SP))
T55AC 017:957.316 - 0.006ms returns 0x24005BC8
T55AC 017:957.322 JLINK_ReadReg(R14)
T55AC 017:957.328 - 0.006ms returns 0x08004F03
T55AC 017:957.336 JLINK_ReadReg(R15 (PC))
T55AC 017:957.342 - 0.006ms returns 0x08004F02
T55AC 017:957.350 JLINK_ReadReg(XPSR)
T55AC 017:957.356 - 0.006ms returns 0x81000000
T55AC 017:957.364 JLINK_ReadReg(MSP)
T55AC 017:957.372 - 0.006ms returns 0x24005BC8
T55AC 017:957.378 JLINK_ReadReg(PSP)
T55AC 017:957.384 - 0.006ms returns 0x00000000
T55AC 017:957.468 JLINK_ReadReg(CFBP)
T55AC 017:957.476 - 0.007ms returns 0x04000000
T55AC 017:957.484 JLINK_ReadReg(FPSCR)
T55AC 017:960.836 - 3.348ms returns 0x03000000
T55AC 017:960.874 JLINK_ReadReg(FPS0)
T55AC 017:960.890 - 0.015ms returns 0x00000000
T55AC 017:960.904 JLINK_ReadReg(FPS1)
T55AC 017:960.916 - 0.013ms returns 0x00000000
T55AC 017:960.932 JLINK_ReadReg(FPS2)
T55AC 017:960.946 - 0.013ms returns 0x00000000
T55AC 017:960.960 JLINK_ReadReg(FPS3)
T55AC 017:960.972 - 0.013ms returns 0x00000000
T55AC 017:960.988 JLINK_ReadReg(FPS4)
T55AC 017:961.002 - 0.013ms returns 0x00000000
T55AC 017:961.016 JLINK_ReadReg(FPS5)
T55AC 017:961.028 - 0.013ms returns 0x00000000
T55AC 017:961.044 JLINK_ReadReg(FPS6)
T55AC 017:961.058 - 0.013ms returns 0x00000000
T55AC 017:961.072 JLINK_ReadReg(FPS7)
T55AC 017:961.084 - 0.012ms returns 0x00000000
T55AC 017:961.100 JLINK_ReadReg(FPS8)
T55AC 017:961.112 - 0.012ms returns 0x00000000
T55AC 017:961.126 JLINK_ReadReg(FPS9)
T55AC 017:961.140 - 0.013ms returns 0x00000000
T55AC 017:961.156 JLINK_ReadReg(FPS10)
T55AC 017:961.164 - 0.009ms returns 0x00000000
T55AC 017:961.172 JLINK_ReadReg(FPS11)
T55AC 017:961.180 - 0.006ms returns 0x00000000
T55AC 017:961.186 JLINK_ReadReg(FPS12)
T55AC 017:961.192 - 0.006ms returns 0x00000000
T55AC 017:961.200 JLINK_ReadReg(FPS13)
T55AC 017:961.206 - 0.006ms returns 0x00000000
T55AC 017:961.212 JLINK_ReadReg(FPS14)
T55AC 017:961.220 - 0.006ms returns 0x00000000
T55AC 017:961.228 JLINK_ReadReg(FPS15)
T55AC 017:961.234 - 0.006ms returns 0xFFFFFFFF
T55AC 017:961.242 JLINK_ReadReg(FPS16)
T55AC 017:961.248 - 0.006ms returns 0x00000000
T55AC 017:961.254 JLINK_ReadReg(FPS17)
T55AC 017:961.260 - 0.006ms returns 0x00000000
T55AC 017:961.268 JLINK_ReadReg(FPS18)
T55AC 017:961.276 - 0.006ms returns 0x00000000
T55AC 017:961.282 JLINK_ReadReg(FPS19)
T55AC 017:961.288 - 0.006ms returns 0x00000000
T55AC 017:961.296 JLINK_ReadReg(FPS20)
T55AC 017:961.302 - 0.006ms returns 0x00000000
T55AC 017:961.308 JLINK_ReadReg(FPS21)
T55AC 017:961.316 - 0.006ms returns 0x00000000
T55AC 017:961.324 JLINK_ReadReg(FPS22)
T55AC 017:961.330 - 0.006ms returns 0x00000000
T55AC 017:961.348 JLINK_ReadReg(FPS23)
T55AC 017:961.354 - 0.006ms returns 0x00000000
T55AC 017:961.362 JLINK_ReadReg(FPS24)
T55AC 017:961.372 - 0.010ms returns 0x00000000
T55AC 017:961.388 JLINK_ReadReg(FPS25)
T55AC 017:961.398 - 0.011ms returns 0x00000000
T55AC 017:961.408 JLINK_ReadReg(FPS26)
T55AC 017:961.418 - 0.008ms returns 0x00000000
T55AC 017:961.428 JLINK_ReadReg(FPS27)
T55AC 017:961.436 - 0.007ms returns 0x00000000
T55AC 017:961.444 JLINK_ReadReg(FPS28)
T55AC 017:961.452 - 0.008ms returns 0x00000000
T55AC 017:961.462 JLINK_ReadReg(FPS29)
T55AC 017:961.470 - 0.008ms returns 0x00000000
T55AC 017:961.480 JLINK_ReadReg(FPS30)
T55AC 017:961.488 - 0.008ms returns 0x00000000
T55AC 017:961.498 JLINK_ReadReg(FPS31)
T55AC 017:961.508 - 0.008ms returns 0xFFFFFFFF
T52CC 017:963.652 JLINK_ReadMemEx(0x24005BDC, 0x4 Bytes, Flags = 0x02000000)
T52CC 017:963.718   CPU_ReadMem(64 bytes @ 0x24005BC0)
T52CC 017:964.448    -- Updating C cache (64 bytes @ 0x24005BC0)
T52CC 017:964.492    -- Read from C cache (4 bytes @ 0x24005BDC)
T52CC 017:964.516   Data:  27 03 00 08
T52CC 017:964.538 - 0.886ms returns 4 (0x4)
T52CC 017:964.660 JLINK_HasError()
T52CC 017:964.698 JLINK_ReadMemU32(0xE0001004, 0x1 Items)
T52CC 017:964.716   CPU_ReadMem(4 bytes @ 0xE0001004)
T52CC 017:965.184   Data:  01 24 00 00
T52CC 017:965.204   Debug reg: DWT_CYCCNT
T52CC 017:965.216 - 0.518ms returns 1 (0x1)
T52CC 017:969.214 JLINK_ReadMemEx(0x08004EFC, 0x3C Bytes, Flags = 0x02000000)
T52CC 017:969.268   CPU_ReadMem(128 bytes @ 0x08004EC0)
T52CC 017:970.444    -- Updating C cache (128 bytes @ 0x08004EC0)
T52CC 017:970.502    -- Read from C cache (60 bytes @ 0x08004EFC)
T52CC 017:970.528   Data:  04 20 FC F7 27 FC FC F7 79 FB FF F7 E3 F9 FE F7 ...
T52CC 017:970.548 - 1.334ms returns 60 (0x3C)
T55AC 018:501.634 JLINK_ReadMemEx(0x08004F02, 0x2 Bytes, Flags = 0x02000000)
T55AC 018:501.692    -- Read from C cache (2 bytes @ 0x08004F02)
T55AC 018:501.706   Data:  FC F7
T55AC 018:501.716 - 0.084ms returns 2 (0x2)
T55AC 018:501.724 JLINK_HasError()
T55AC 018:501.736 JLINK_SetBPEx(Addr = 0x08004F06, Type = 0xFFFFFFF2)
T55AC 018:501.746 - 0.009ms returns 0x00000003
T55AC 018:501.754 JLINK_HasError()
T55AC 018:501.760 JLINK_HasError()
T55AC 018:501.768 JLINK_Go()
T55AC 018:502.184   CPU_WriteMem(4 bytes @ 0xE0002000)
T55AC 018:502.736   CPU_ReadMem(4 bytes @ 0xE0001000)
T55AC 018:503.182   CPU_WriteMem(4 bytes @ 0xE0002008)
T55AC 018:504.266 - 2.496ms 
T55AC 018:605.332 JLINK_HasError()
T55AC 018:605.398 JLINK_IsHalted()
T55AC 018:607.852 - 2.453ms returns TRUE
T55AC 018:607.906 JLINK_HasError()
T55AC 018:607.918 JLINK_Halt()
T55AC 018:607.932 - 0.011ms returns 0x00
T55AC 018:607.944 JLINK_IsHalted()
T55AC 018:607.956 - 0.011ms returns TRUE
T55AC 018:607.968 JLINK_IsHalted()
T55AC 018:607.980 - 0.011ms returns TRUE
T55AC 018:607.992 JLINK_IsHalted()
T55AC 018:608.004 - 0.011ms returns TRUE
T55AC 018:608.016 JLINK_HasError()
T55AC 018:608.030 JLINK_ReadReg(R15 (PC))
T55AC 018:608.044 - 0.012ms returns 0x08004F06
T55AC 018:608.056 JLINK_ReadReg(XPSR)
T55AC 018:608.068 - 0.011ms returns 0x61000000
T55AC 018:608.084 JLINK_HasError()
T55AC 018:608.100 JLINK_ClrBPEx(BPHandle = 0x00000003)
T55AC 018:608.110 - 0.012ms returns 0x00
T55AC 018:608.124 JLINK_HasError()
T55AC 018:608.136 JLINK_HasError()
T55AC 018:608.148 JLINK_ReadMemU32(0xE000ED30, 0x1 Items)
T55AC 018:608.170   CPU_ReadMem(4 bytes @ 0xE000ED30)
T55AC 018:608.756   Data:  02 00 00 00
T55AC 018:608.776 - 0.627ms returns 1 (0x1)
T55AC 018:608.786 JLINK_ReadMemU32(0xE0001028, 0x1 Items)
T55AC 018:608.796   CPU_ReadMem(4 bytes @ 0xE0001028)
T55AC 018:609.400   Data:  00 00 00 00
T55AC 018:609.440   Debug reg: DWT_FUNC[0]
T55AC 018:609.462 - 0.675ms returns 1 (0x1)
T55AC 018:609.482 JLINK_ReadMemU32(0xE0001038, 0x1 Items)
T55AC 018:609.502   CPU_ReadMem(4 bytes @ 0xE0001038)
T55AC 018:610.014   Data:  00 02 00 00
T55AC 018:610.054   Debug reg: DWT_FUNC[1]
T55AC 018:610.074 - 0.591ms returns 1 (0x1)
T55AC 018:610.092 JLINK_ReadMemU32(0xE0001048, 0x1 Items)
T55AC 018:610.114   CPU_ReadMem(4 bytes @ 0xE0001048)
T55AC 018:610.624   Data:  00 00 00 00
T55AC 018:610.644   Debug reg: DWT_FUNC[2]
T55AC 018:610.652 - 0.561ms returns 1 (0x1)
T55AC 018:610.662 JLINK_ReadMemU32(0xE0001058, 0x1 Items)
T55AC 018:610.674   CPU_ReadMem(4 bytes @ 0xE0001058)
T55AC 018:611.268   Data:  00 00 00 00
T55AC 018:611.306   Debug reg: DWT_FUNC[3]
T55AC 018:611.318 - 0.655ms returns 1 (0x1)
T55AC 018:611.364 JLINK_HasError()
T55AC 018:611.374 JLINK_ReadReg(R0)
T55AC 018:611.382 - 0.008ms returns 0x00000000
T55AC 018:611.390 JLINK_ReadReg(R1)
T55AC 018:611.396 - 0.007ms returns 0x000000F0
T55AC 018:611.404 JLINK_ReadReg(R2)
T55AC 018:611.412 - 0.006ms returns 0x00000000
T55AC 018:611.420 JLINK_ReadReg(R3)
T55AC 018:611.426 - 0.006ms returns 0x00000000
T55AC 018:611.432 JLINK_ReadReg(R4)
T55AC 018:611.438 - 0.006ms returns 0x00000000
T55AC 018:611.446 JLINK_ReadReg(R5)
T55AC 018:611.452 - 0.006ms returns 0x2400557C
T55AC 018:611.460 JLINK_ReadReg(R6)
T55AC 018:611.468 - 0.006ms returns 0x00000000
T55AC 018:611.474 JLINK_ReadReg(R7)
T55AC 018:611.482 - 0.006ms returns 0x00000000
T55AC 018:611.488 JLINK_ReadReg(R8)
T55AC 018:611.494 - 0.006ms returns 0x00000000
T55AC 018:611.502 JLINK_ReadReg(R9)
T55AC 018:611.508 - 0.006ms returns 0x00000000
T55AC 018:611.516 JLINK_ReadReg(R10)
T55AC 018:611.522 - 0.006ms returns 0x080066DC
T55AC 018:611.530 JLINK_ReadReg(R11)
T55AC 018:611.536 - 0.006ms returns 0x00000000
T55AC 018:611.544 JLINK_ReadReg(R12)
T55AC 018:611.550 - 0.006ms returns 0x40014000
T55AC 018:611.558 JLINK_ReadReg(R13 (SP))
T55AC 018:611.564 - 0.006ms returns 0x24005BC8
T55AC 018:611.572 JLINK_ReadReg(R14)
T55AC 018:611.580 - 0.006ms returns 0x0800163F
T55AC 018:611.586 JLINK_ReadReg(R15 (PC))
T55AC 018:611.594 - 0.006ms returns 0x08004F06
T55AC 018:611.600 JLINK_ReadReg(XPSR)
T55AC 018:611.620 - 0.018ms returns 0x61000000
T55AC 018:611.628 JLINK_ReadReg(MSP)
T55AC 018:611.634 - 0.006ms returns 0x24005BC8
T55AC 018:611.640 JLINK_ReadReg(PSP)
T55AC 018:611.648 - 0.006ms returns 0x00000000
T55AC 018:611.654 JLINK_ReadReg(CFBP)
T55AC 018:611.660 - 0.006ms returns 0x04000000
T55AC 018:611.668 JLINK_ReadReg(FPSCR)
T55AC 018:615.244 - 3.572ms returns 0x03000000
T55AC 018:615.284 JLINK_ReadReg(FPS0)
T55AC 018:615.300 - 0.015ms returns 0x00000000
T55AC 018:615.314 JLINK_ReadReg(FPS1)
T55AC 018:615.328 - 0.013ms returns 0x00000000
T55AC 018:615.342 JLINK_ReadReg(FPS2)
T55AC 018:615.356 - 0.013ms returns 0x00000000
T55AC 018:615.372 JLINK_ReadReg(FPS3)
T55AC 018:615.384 - 0.013ms returns 0x00000000
T55AC 018:615.398 JLINK_ReadReg(FPS4)
T55AC 018:615.412 - 0.013ms returns 0x00000000
T55AC 018:615.426 JLINK_ReadReg(FPS5)
T55AC 018:615.438 - 0.013ms returns 0x00000000
T55AC 018:615.454 JLINK_ReadReg(FPS6)
T55AC 018:615.468 - 0.013ms returns 0x00000000
T55AC 018:615.480 JLINK_ReadReg(FPS7)
T55AC 018:615.488 - 0.008ms returns 0x00000000
T55AC 018:615.498 JLINK_ReadReg(FPS8)
T55AC 018:615.508 - 0.009ms returns 0x00000000
T55AC 018:615.524 JLINK_ReadReg(FPS9)
T55AC 018:615.534 - 0.009ms returns 0x00000000
T55AC 018:615.544 JLINK_ReadReg(FPS10)
T55AC 018:615.554 - 0.009ms returns 0x00000000
T55AC 018:615.564 JLINK_ReadReg(FPS11)
T55AC 018:615.572 - 0.008ms returns 0x00000000
T55AC 018:615.580 JLINK_ReadReg(FPS12)
T55AC 018:615.588 - 0.008ms returns 0x00000000
T55AC 018:615.604 JLINK_ReadReg(FPS13)
T55AC 018:615.612 - 0.008ms returns 0x00000000
T55AC 018:615.620 JLINK_ReadReg(FPS14)
T55AC 018:615.628 - 0.007ms returns 0x00000000
T55AC 018:615.636 JLINK_ReadReg(FPS15)
T55AC 018:615.644 - 0.008ms returns 0xFFFFFFFF
T55AC 018:615.654 JLINK_ReadReg(FPS16)
T55AC 018:615.662 - 0.008ms returns 0x00000000
T55AC 018:615.670 JLINK_ReadReg(FPS17)
T55AC 018:615.690 - 0.019ms returns 0x00000000
T55AC 018:615.700 JLINK_ReadReg(FPS18)
T55AC 018:615.708 - 0.008ms returns 0x00000000
T55AC 018:615.716 JLINK_ReadReg(FPS19)
T55AC 018:615.724 - 0.008ms returns 0x00000000
T55AC 018:615.734 JLINK_ReadReg(FPS20)
T55AC 018:615.744 - 0.008ms returns 0x00000000
T55AC 018:615.752 JLINK_ReadReg(FPS21)
T55AC 018:615.762 - 0.008ms returns 0x00000000
T55AC 018:615.772 JLINK_ReadReg(FPS22)
T55AC 018:615.786 - 0.013ms returns 0x00000000
T55AC 018:615.798 JLINK_ReadReg(FPS23)
T55AC 018:615.806 - 0.008ms returns 0x00000000
T55AC 018:615.814 JLINK_ReadReg(FPS24)
T55AC 018:615.824 - 0.008ms returns 0x00000000
T55AC 018:615.834 JLINK_ReadReg(FPS25)
T55AC 018:615.850 - 0.015ms returns 0x00000000
T55AC 018:615.860 JLINK_ReadReg(FPS26)
T55AC 018:615.868 - 0.009ms returns 0x00000000
T55AC 018:615.878 JLINK_ReadReg(FPS27)
T55AC 018:615.886 - 0.008ms returns 0x00000000
T55AC 018:615.896 JLINK_ReadReg(FPS28)
T55AC 018:615.904 - 0.007ms returns 0x00000000
T55AC 018:615.914 JLINK_ReadReg(FPS29)
T55AC 018:615.924 - 0.008ms returns 0x00000000
T55AC 018:615.932 JLINK_ReadReg(FPS30)
T55AC 018:615.940 - 0.008ms returns 0x00000000
T55AC 018:615.948 JLINK_ReadReg(FPS31)
T55AC 018:615.958 - 0.008ms returns 0xFFFFFFFF
T52CC 018:619.068 JLINK_ReadMemEx(0x24005BDC, 0x4 Bytes, Flags = 0x02000000)
T52CC 018:619.130   CPU_ReadMem(64 bytes @ 0x24005BC0)
T52CC 018:619.896    -- Updating C cache (64 bytes @ 0x24005BC0)
T52CC 018:619.946    -- Read from C cache (4 bytes @ 0x24005BDC)
T52CC 018:619.964   Data:  27 03 00 08
T52CC 018:619.982 - 0.915ms returns 4 (0x4)
T52CC 018:620.036 JLINK_HasError()
T52CC 018:620.052 JLINK_ReadMemU32(0xE0001004, 0x1 Items)
T52CC 018:620.074   CPU_ReadMem(4 bytes @ 0xE0001004)
T52CC 018:620.546   Data:  A7 2B 00 00
T52CC 018:620.588   Debug reg: DWT_CYCCNT
T52CC 018:620.610 - 0.556ms returns 1 (0x1)
T52CC 018:624.396 JLINK_ReadMemEx(0x08004F02, 0x2 Bytes, Flags = 0x02000000)
T52CC 018:624.452   CPU_ReadMem(64 bytes @ 0x08004F00)
T52CC 018:625.306    -- Updating C cache (64 bytes @ 0x08004F00)
T52CC 018:625.348    -- Read from C cache (2 bytes @ 0x08004F02)
T52CC 018:625.372   Data:  FC F7
T52CC 018:625.382 - 0.988ms returns 2 (0x2)
T52CC 018:625.394 JLINK_ReadMemEx(0x08004F04, 0x3C Bytes, Flags = 0x02000000)
T52CC 018:625.404    -- Read from C cache (60 bytes @ 0x08004F04)
T52CC 018:625.412   Data:  79 FB FF F7 E3 F9 FE F7 27 FC FE F7 A3 FC FE F7 ...
T52CC 018:625.422 - 0.028ms returns 60 (0x3C)
T55AC 019:111.264 JLINK_ReadMemEx(0x08004F06, 0x2 Bytes, Flags = 0x02000000)
T55AC 019:111.324    -- Read from C cache (2 bytes @ 0x08004F06)
T55AC 019:111.340   Data:  FF F7
T55AC 019:111.358 - 0.094ms returns 2 (0x2)
T55AC 019:111.372 JLINK_HasError()
T55AC 019:111.388 JLINK_SetBPEx(Addr = 0x08004F0A, Type = 0xFFFFFFF2)
T55AC 019:111.402 - 0.013ms returns 0x00000004
T55AC 019:111.412 JLINK_HasError()
T55AC 019:111.426 JLINK_HasError()
T55AC 019:111.438 JLINK_Go()
T55AC 019:112.044   CPU_WriteMem(4 bytes @ 0xE0002000)
T55AC 019:112.710   CPU_ReadMem(4 bytes @ 0xE0001000)
T55AC 019:113.286   CPU_WriteMem(4 bytes @ 0xE0002008)
T55AC 019:114.676 - 3.235ms 
T55AC 019:215.360 JLINK_HasError()
T55AC 019:215.432 JLINK_IsHalted()
T55AC 019:216.032 - 0.598ms returns FALSE
T55AC 019:316.786 JLINK_HasError()
T55AC 019:316.862 JLINK_IsHalted()
T55AC 019:317.500 - 0.636ms returns FALSE
T55AC 019:417.792 JLINK_HasError()
T55AC 019:417.836 JLINK_IsHalted()
T55AC 019:418.468 - 0.631ms returns FALSE
T55AC 019:518.894 JLINK_HasError()
T55AC 019:518.956 JLINK_IsHalted()
T55AC 019:519.582 - 0.624ms returns FALSE
T55AC 019:620.464 JLINK_HasError()
T55AC 019:620.524 JLINK_IsHalted()
T55AC 019:621.066 - 0.541ms returns FALSE
T55AC 019:721.648 JLINK_HasError()
T55AC 019:721.712 JLINK_HasError()
T55AC 019:721.728 JLINK_ReadMemU32(0xE0001004, 0x1 Items)
T55AC 019:721.758   CPU_ReadMem(4 bytes @ 0xE0001004)
T55AC 019:722.324   Data:  42 00 80 03
T55AC 019:722.362   Debug reg: DWT_CYCCNT
T55AC 019:722.382 - 0.654ms returns 1 (0x1)
T55AC 019:722.686 JLINK_IsHalted()
T55AC 019:723.340 - 0.653ms returns FALSE
T55AC 019:823.900 JLINK_HasError()
T55AC 019:823.968 JLINK_IsHalted()
T55AC 019:824.670 - 0.700ms returns FALSE
T55AC 019:924.840 JLINK_HasError()
T55AC 019:924.930 JLINK_IsHalted()
T55AC 019:925.710 - 0.777ms returns FALSE
T55AC 020:025.860 JLINK_HasError()
T55AC 020:025.910 JLINK_IsHalted()
T55AC 020:026.428 - 0.516ms returns FALSE
T55AC 020:127.204 JLINK_HasError()
T55AC 020:127.268 JLINK_IsHalted()
T55AC 020:128.220 - 0.950ms returns FALSE
T55AC 020:228.668 JLINK_HasError()
T55AC 020:228.732 JLINK_IsHalted()
T55AC 020:229.378 - 0.644ms returns FALSE
T55AC 020:330.298 JLINK_HasError()
T55AC 020:330.362 JLINK_HasError()
T55AC 020:330.380 JLINK_ReadMemU32(0xE0001004, 0x1 Items)
T55AC 020:330.408   Data:  42 00 80 03
T55AC 020:330.430   Debug reg: DWT_CYCCNT
T55AC 020:330.450 - 0.070ms returns 1 (0x1)
T55AC 020:332.052 JLINK_IsHalted()
T55AC 020:332.554 - 0.499ms returns FALSE
T55AC 020:432.792 JLINK_HasError()
T55AC 020:432.850 JLINK_IsHalted()
T55AC 020:433.548 - 0.696ms returns FALSE
T55AC 020:534.392 JLINK_HasError()
T55AC 020:534.460 JLINK_IsHalted()
T55AC 020:535.180 - 0.717ms returns FALSE
T55AC 020:636.350 JLINK_HasError()
T55AC 020:636.412 JLINK_IsHalted()
T55AC 020:637.032 - 0.617ms returns FALSE
T55AC 020:737.558 JLINK_HasError()
T55AC 020:737.628 JLINK_IsHalted()
T55AC 020:738.276 - 0.647ms returns FALSE
T55AC 020:839.306 JLINK_HasError()
T55AC 020:839.352 JLINK_IsHalted()
T55AC 020:839.808 - 0.454ms returns FALSE
T55AC 020:941.124 JLINK_HasError()
T55AC 020:941.188 JLINK_HasError()
T55AC 020:941.206 JLINK_ReadMemU32(0xE0001004, 0x1 Items)
T55AC 020:941.236   Data:  42 00 80 03
T55AC 020:941.256   Debug reg: DWT_CYCCNT
T55AC 020:941.276 - 0.069ms returns 1 (0x1)
T55AC 020:941.604 JLINK_IsHalted()
T55AC 020:942.276 - 0.672ms returns FALSE
T55AC 021:043.000 JLINK_HasError()
T55AC 021:043.064 JLINK_IsHalted()
T55AC 021:043.606 - 0.540ms returns FALSE
T55AC 021:143.968 JLINK_HasError()
T55AC 021:144.034 JLINK_IsHalted()
T55AC 021:144.672 - 0.635ms returns FALSE
T55AC 021:244.916 JLINK_HasError()
T55AC 021:245.000 JLINK_IsHalted()
T55AC 021:245.760 - 0.758ms returns FALSE
T55AC 021:346.236 JLINK_HasError()
T55AC 021:346.300 JLINK_IsHalted()
T55AC 021:346.964 - 0.662ms returns FALSE
T55AC 021:447.420 JLINK_HasError()
T55AC 021:447.476 JLINK_IsHalted()
T55AC 021:447.960 - 0.482ms returns FALSE
T55AC 021:549.124 JLINK_HasError()
T55AC 021:549.188 JLINK_HasError()
T55AC 021:549.204 JLINK_ReadMemU32(0xE0001004, 0x1 Items)
T55AC 021:549.234   Data:  42 00 80 03
T55AC 021:549.254   Debug reg: DWT_CYCCNT
T55AC 021:549.276 - 0.070ms returns 1 (0x1)
T55AC 021:549.540 JLINK_IsHalted()
T55AC 021:550.160 - 0.619ms returns FALSE
T55AC 021:650.896 JLINK_HasError()
T55AC 021:650.958 JLINK_IsHalted()
T55AC 021:651.556 - 0.597ms returns FALSE
T55AC 021:751.892 JLINK_HasError()
T55AC 021:751.930 JLINK_IsHalted()
T55AC 021:752.516 - 0.583ms returns FALSE
T55AC 021:853.420 JLINK_HasError()
T55AC 021:853.484 JLINK_IsHalted()
T55AC 021:853.938 - 0.452ms returns FALSE
T55AC 021:954.412 JLINK_HasError()
T55AC 021:954.476 JLINK_IsHalted()
T55AC 021:955.070 - 0.593ms returns FALSE
T55AC 022:056.094 JLINK_HasError()
T55AC 022:056.160 JLINK_IsHalted()
T55AC 022:056.868 - 0.706ms returns FALSE
T55AC 022:157.214 JLINK_HasError()
T55AC 022:157.280 JLINK_HasError()
T55AC 022:157.296 JLINK_ReadMemU32(0xE0001004, 0x1 Items)
T55AC 022:157.326   Data:  42 00 80 03
T55AC 022:157.348   Debug reg: DWT_CYCCNT
T55AC 022:157.368 - 0.071ms returns 1 (0x1)
T55AC 022:158.132 JLINK_IsHalted()
T55AC 022:158.816 - 0.681ms returns FALSE
T55AC 022:259.578 JLINK_HasError()
T55AC 022:259.648 JLINK_IsHalted()
T55AC 022:260.204 - 0.555ms returns FALSE
T55AC 022:361.272 JLINK_HasError()
T55AC 022:361.316 JLINK_IsHalted()
T55AC 022:361.938 - 0.619ms returns FALSE
T55AC 022:462.162 JLINK_HasError()
